
T4040 000:298 SEGGER J-Link V4.98e Log File (0001ms, 0277ms total)
T4040 000:298 DLL Compiled: May  5 2015 11:00:52 (0001ms, 0277ms total)
T4040 000:298 Logging started @ 2023-09-12 22:52 (0001ms, 0277ms total)
T4040 000:299 JLINK_SetWarnOutHandler(...) (0000ms, 0277ms total)
T4040 000:299 JLINK_OpenEx(...)
Firmware: J-Link V9 compiled Apr 21 2015 18:10:40
Hardware: V9.70
S/N: 59768880
Feature(s): RDI, GDB, FlashDL, FlashBP, JFlash  returns O.K. (0269ms, 0546ms total)
T4040 000:568 JLINK_SetErrorOutHandler(...) (0000ms, 0546ms total)
T4040 000:568 JLINK_ExecCommand("ProjectFile = "D:\WorkSpace\GitWorkSpace\WeightMode_STM32F407\WeightMode_V5\SoftWare\STM32MCU\Dev\MDK-ARM\JLinkSettings.ini"", ...)  returns 0x00 (0000ms, 0546ms total)
T4040 000:569 JLINK_ExecCommand("Device = STM32F303VE", ...)Device "STM32F303VE" selected.  returns 0x00 (0000ms, 0546ms total)
T4040 000:569 JLINK_ExecCommand("DisableConnectionTimeout", ...)  returns 0x01 (0000ms, 0546ms total)
T4040 000:569 JLINK_GetHardwareVersion()  returns 0x17AE8 (0000ms, 0546ms total)
T4040 000:569 JLINK_GetDLLVersion()  returns 49805 (0000ms, 0546ms total)
T4040 000:569 JLINK_GetFirmwareString(...) (0000ms, 0546ms total)
T4040 000:570 JLINK_GetDLLVersion()  returns 49805 (0000ms, 0546ms total)
T4040 000:570 JLINK_GetCompileDateTime() (0000ms, 0546ms total)
T4040 000:571 JLINK_GetFirmwareString(...) (0000ms, 0546ms total)
T4040 000:571 JLINK_GetHardwareVersion()  returns 0x17AE8 (0000ms, 0546ms total)
T4040 000:572 JLINK_TIF_Select(JLINKARM_TIF_SWD)  returns 0x00 (0001ms, 0547ms total)
T4040 000:573 JLINK_SetSpeed(5000) (0000ms, 0547ms total)
T4040 000:573 JLINK_GetId() >0x108 TIF>Found SWD-DP with ID 0x2BA01477 >0x0D TIF> >0x28 TIF> >0x0D TIF> >0x28 TIF> >0x0D TIF> >0x21 TIF> >0x0D TIF> >0x28 TIF> >0x0D TIF> >0x28 TIF> >0x0D TIF> >0x28 TIF> >0x0D TIF> >0x21 TIF> >0x0D TIF> >0x21 TIF> >0x0D TIF> >0x28 TIF> >0x0D TIF> >0x21 TIF> >0x0D TIF> >0x21 TIF> >0x0D TIF> >0x28 TIF> >0x0D TIF> >0x21 TIF> >0x0D TIF> >0x21 TIF> >0x108 TIF>Found SWD-DP with ID 0x2BA01477 >0x0D TIF> >0x21 TIF> >0x0D TIF> >0x28 TIF> >0x0D TIF> >0x28 TIF> >0x0D TIF> >0x21 TIF>
 >0x0D TIF> >0x28 TIF> >0x0D TIF> >0x21 TIF> >0x0D TIF> >0x21 TIF> >0x0D TIF> >0x21 TIF> >0x0D TIF> >0x21 TIF> >0x0D TIF> >0x28 TIF> >0x0D TIF> >0x28 TIF> >0x0D TIF> >0x21 TIF> >0x0D TIF> >0x28 TIF> >0x0D TIF> >0x28 TIF> >0x0D TIF> >0x28 TIF> >0x0D TIF> >0x21 TIF> >0x0D TIF> >0x21 TIF> >0x0D TIF> >0x28 TIF> >0x0D TIF> >0x21 TIF> >0x0D TIF> >0x21 TIF>Found Cortex-M4 r0p1, Little endian. -- CPU_WriteMem(4 bytes @ 0xE0002000) -- CPU_ReadMem(4 bytes @ 0xE000EDF0) -- CPU_ReadMem(4 bytes @ 0xE0002000)
FPUnit: 6 code (BP) slots and 2 literal slots -- CPU_ReadMem(4 bytes @ 0xE000EDFC) -- CPU_ReadMem(4 bytes @ 0xE0001000) -- CPU_WriteMem(4 bytes @ 0xE0001000) -- CPU_ReadMem(4 bytes @ 0xE000ED88) -- CPU_WriteMem(4 bytes @ 0xE000ED88) -- CPU_ReadMem(4 bytes @ 0xE000ED88) -- CPU_WriteMem(4 bytes @ 0xE000ED88)CoreSight components:ROMTbl 0 @ E00FF000 -- CPU_ReadMem(16 bytes @ 0xE00FF000) -- CPU_ReadMem(16 bytes @ 0xE000EFF0) -- CPU_ReadMem(16 bytes @ 0xE000EFE0)
ROMTbl 0 [0]: FFF0F000, CID: B105E00D, PID: 000BB00C SCS -- CPU_ReadMem(16 bytes @ 0xE0001FF0) -- CPU_ReadMem(16 bytes @ 0xE0001FE0)ROMTbl 0 [1]: FFF02000, CID: B105E00D, PID: 003BB002 DWT -- CPU_ReadMem(16 bytes @ 0xE0002FF0) -- CPU_ReadMem(16 bytes @ 0xE0002FE0)ROMTbl 0 [2]: FFF03000, CID: B105E00D, PID: 002BB003 FPB -- CPU_ReadMem(16 bytes @ 0xE0000FF0) -- CPU_ReadMem(16 bytes @ 0xE0000FE0)ROMTbl 0 [3]: FFF01000, CID: B105E00D, PID: 003BB001 ITM -- CPU_ReadMem(16 bytes @ 0xE00FF010)
 -- CPU_ReadMem(16 bytes @ 0xE0040FF0) -- CPU_ReadMem(16 bytes @ 0xE0040FE0)ROMTbl 0 [4]: FFF41000, CID: B105900D, PID: 000BB9A1 TPIU -- CPU_ReadMem(16 bytes @ 0xE0041FF0) -- CPU_ReadMem(16 bytes @ 0xE0041FE0)ROMTbl 0 [5]: FFF42000, CID: B105900D, PID: 000BB925 ETM -- CPU_WriteMem(65536 bytes @ 0x20000000) >0x0D TIF> >0x21 TIF>  returns 0x2BA01477 (0293ms, 0840ms total)
T4040 000:866 JLINK_GetDLLVersion()  returns 49805 (0000ms, 0840ms total)
T4040 000:866 JLINK_CORE_GetFound()  returns 0xE0000FF (0000ms, 0840ms total)
T4040 000:866 JLINK_GetDebugInfo(0x100) -- Value=0xE00FF003  returns 0x00 (0000ms, 0840ms total)
T4040 000:866 JLINK_ReadMem (0xE00FF000, 0x0020 Bytes, ...) -- CPU_ReadMem(32 bytes @ 0xE00FF000) - Data: 03 F0 F0 FF 03 20 F0 FF 03 30 F0 FF 03 10 F0 FF ...  returns 0x00 (0002ms, 0842ms total)
T4040 000:868 JLINK_ReadMem (0xE000EFF0, 0x0010 Bytes, ...) -- CPU_ReadMem(16 bytes @ 0xE000EFF0) - Data: 0D 00 00 00 E0 00 00 00 05 00 00 00 B1 00 00 00  returns 0x00 (0000ms, 0842ms total)
T4040 000:868 JLINK_ReadMem (0xE000EFD0, 0x0020 Bytes, ...) -- CPU_ReadMem(32 bytes @ 0xE000EFD0) - Data: 04 00 00 00 00 00 00 00 00 00 00 00 00 00 00 00 ...  returns 0x00 (0001ms, 0843ms total)
T4040 000:869 JLINK_ReadMem (0xE0001FF0, 0x0010 Bytes, ...) -- CPU_ReadMem(16 bytes @ 0xE0001FF0) - Data: 0D 00 00 00 E0 00 00 00 05 00 00 00 B1 00 00 00  returns 0x00 (0000ms, 0843ms total)
T4040 000:869 JLINK_ReadMem (0xE0001FD0, 0x0020 Bytes, ...) -- CPU_ReadMem(32 bytes @ 0xE0001FD0) - Data: 04 00 00 00 00 00 00 00 00 00 00 00 00 00 00 00 ...  returns 0x00 (0000ms, 0843ms total)
T4040 000:869 JLINK_ReadMem (0xE0002FF0, 0x0010 Bytes, ...) -- CPU_ReadMem(16 bytes @ 0xE0002FF0) - Data: 0D 00 00 00 E0 00 00 00 05 00 00 00 B1 00 00 00  returns 0x00 (0001ms, 0844ms total)
T4040 000:870 JLINK_ReadMem (0xE0002FD0, 0x0020 Bytes, ...) -- CPU_ReadMem(32 bytes @ 0xE0002FD0) - Data: 04 00 00 00 00 00 00 00 00 00 00 00 00 00 00 00 ...  returns 0x00 (0000ms, 0844ms total)
T4040 000:870 JLINK_ReadMem (0xE0000FF0, 0x0010 Bytes, ...) -- CPU_ReadMem(16 bytes @ 0xE0000FF0) - Data: 0D 00 00 00 E0 00 00 00 05 00 00 00 B1 00 00 00  returns 0x00 (0001ms, 0845ms total)
T4040 000:871 JLINK_ReadMem (0xE0000FD0, 0x0020 Bytes, ...) -- CPU_ReadMem(32 bytes @ 0xE0000FD0) - Data: 04 00 00 00 00 00 00 00 00 00 00 00 00 00 00 00 ...  returns 0x00 (0000ms, 0845ms total)
T4040 000:871 JLINK_ReadMem (0xE0040FF0, 0x0010 Bytes, ...) -- CPU_ReadMem(16 bytes @ 0xE0040FF0) - Data: 0D 00 00 00 90 00 00 00 05 00 00 00 B1 00 00 00  returns 0x00 (0001ms, 0846ms total)
T4040 000:872 JLINK_ReadMem (0xE0040FD0, 0x0020 Bytes, ...) -- CPU_ReadMem(32 bytes @ 0xE0040FD0) - Data: 04 00 00 00 00 00 00 00 00 00 00 00 00 00 00 00 ...  returns 0x00 (0000ms, 0846ms total)
T4040 000:872 JLINK_ReadMem (0xE0041FF0, 0x0010 Bytes, ...) -- CPU_ReadMem(16 bytes @ 0xE0041FF0) - Data: 0D 00 00 00 90 00 00 00 05 00 00 00 B1 00 00 00  returns 0x00 (0000ms, 0846ms total)
T4040 000:872 JLINK_ReadMem (0xE0041FD0, 0x0020 Bytes, ...) -- CPU_ReadMem(32 bytes @ 0xE0041FD0) - Data: 04 00 00 00 00 00 00 00 00 00 00 00 00 00 00 00 ...  returns 0x00 (0001ms, 0847ms total)
T4040 000:873 JLINK_ReadMemU32(0xE000EF40, 0x0001 Items, ...) -- CPU_ReadMem(4 bytes @ 0xE000EF40) - Data: 21 00 11 10  returns 0x01 (0000ms, 0847ms total)
T4040 000:873 JLINK_ReadMemU32(0xE000EF44, 0x0001 Items, ...) -- CPU_ReadMem(4 bytes @ 0xE000EF44) - Data: 11 00 00 11  returns 0x01 (0000ms, 0847ms total)
T4040 000:873 JLINK_ReadMemU32(0xE000ED00, 0x0001 Items, ...) -- CPU_ReadMem(4 bytes @ 0xE000ED00) - Data: 41 C2 0F 41  returns 0x01 (0000ms, 0847ms total)
T4040 000:873 JLINK_SetResetType(JLINKARM_RESET_TYPE_NORMAL)  returns JLINKARM_RESET_TYPE_NORMAL (0000ms, 0847ms total)
T4040 000:873 JLINK_Reset() -- CPU_WriteMem(4 bytes @ 0xE000EDF0) -- CPU_WriteMem(4 bytes @ 0xE000EDFC) >0x35 TIF> -- CPU_WriteMem(4 bytes @ 0xE000ED0C) -- CPU_ReadMem(4 bytes @ 0xE000EDF0) -- CPU_ReadMem(4 bytes @ 0xE000EDF0) -- CPU_WriteMem(4 bytes @ 0xE000EDF0) -- CPU_WriteMem(4 bytes @ 0xE000EDFC) -- CPU is running -- CPU_ReadMem(4 bytes @ 0xE000EDF0) -- CPU_WriteMem(4 bytes @ 0xE0002000) -- CPU_ReadMem(4 bytes @ 0xE000EDFC) -- CPU_ReadMem(4 bytes @ 0xE0001000) (0016ms, 0863ms total)
T4040 000:889 JLINK_ReadReg(R15 (PC))  returns 0x08000328 (0000ms, 0863ms total)
T4040 000:889 JLINK_ReadReg(XPSR)  returns 0x01000000 (0000ms, 0863ms total)
T4040 000:889 JLINK_Halt()  returns 0x00 (0000ms, 0863ms total)
T4040 000:889 JLINK_IsHalted()  returns TRUE (0000ms, 0863ms total)
T4040 000:889 JLINK_ReadMemU32(0xE000EDF0, 0x0001 Items, ...) -- CPU_ReadMem(4 bytes @ 0xE000EDF0) - Data: 03 00 03 00  returns 0x01 (0000ms, 0863ms total)
T4040 000:889 JLINK_WriteU32(0xE000EDF0, 0xA05F0003) -- CPU_WriteMem(4 bytes @ 0xE000EDF0)  returns 0x00 (0000ms, 0863ms total)
T4040 000:889 JLINK_WriteU32(0xE000EDFC, 0x01000000) -- CPU_WriteMem(4 bytes @ 0xE000EDFC)  returns 0x00 (0001ms, 0864ms total)
T4040 000:891 JLINK_GetHWStatus(...)  returns 0x00 (0001ms, 0865ms total)
T4040 000:892 JLINK_GetNumBPUnits(Type = 0xFFFFFF00)  returns 0x06 (0000ms, 0865ms total)
T4040 000:892 JLINK_GetNumBPUnits(Type = 0xF0)  returns 0x2000 (0000ms, 0865ms total)
T4040 000:892 JLINK_GetNumWPUnits()  returns 0x04 (0000ms, 0865ms total)
T4040 000:892 JLINK_GetSpeed()  returns 0xFA0 (0000ms, 0865ms total)
T4040 000:892 JLINK_ReadMemU32(0xE000E004, 0x0001 Items, ...) -- CPU_ReadMem(4 bytes @ 0xE000E004) - Data: 02 00 00 00  returns 0x01 (0001ms, 0866ms total)
T4040 000:893 JLINK_ReadMemU32(0xE000E004, 0x0001 Items, ...) -- CPU_ReadMem(4 bytes @ 0xE000E004) - Data: 02 00 00 00  returns 0x01 (0000ms, 0866ms total)
T4040 000:893 JLINK_WriteMem(0xE0001000, 0x001C Bytes, ...) - Data: 01 00 00 00 00 00 00 00 00 00 00 00 00 00 00 00 ... -- CPU_WriteMem(28 bytes @ 0xE0001000)  returns 0x1C (0001ms, 0867ms total)
T4040 000:894 JLINK_ReadMem (0xE0001000, 0x001C Bytes, ...) -- CPU_ReadMem(28 bytes @ 0xE0001000) - Data: 01 00 00 40 00 00 00 00 00 00 00 00 00 00 00 00 ...  returns 0x00 (0000ms, 0867ms total)
T4040 000:894 JLINK_ReadReg(R15 (PC))  returns 0x08000328 (0000ms, 0867ms total)
T4040 000:894 JLINK_ReadReg(XPSR)  returns 0x01000000 (0000ms, 0867ms total)
T4040 000:998 JLINK_SetResetType(JLINKARM_RESET_TYPE_NORMAL)  returns JLINKARM_RESET_TYPE_NORMAL (0000ms, 0867ms total)
T4040 000:998 JLINK_Reset() -- CPU_WriteMem(4 bytes @ 0xE000EDF0) -- CPU_WriteMem(4 bytes @ 0xE000EDFC) >0x35 TIF> -- CPU_WriteMem(4 bytes @ 0xE000ED0C) -- CPU_ReadMem(4 bytes @ 0xE000EDF0) -- CPU_ReadMem(4 bytes @ 0xE000EDF0) -- CPU_WriteMem(4 bytes @ 0xE000EDF0) -- CPU_WriteMem(4 bytes @ 0xE000EDFC) -- CPU is running -- CPU_ReadMem(4 bytes @ 0xE000EDF0) -- CPU_WriteMem(4 bytes @ 0xE0002000) -- CPU_ReadMem(4 bytes @ 0xE000EDFC) -- CPU_ReadMem(4 bytes @ 0xE0001000) (0015ms, 0882ms total)
T4040 001:013 JLINK_ReadReg(R15 (PC))  returns 0x08000328 (0001ms, 0883ms total)
T4040 001:014 JLINK_ReadReg(XPSR)  returns 0x01000000 (0000ms, 0883ms total)
T4040 001:014 JLINK_ReadMem (0x08000228, 0x003C Bytes, ...) -- CPU_ReadMem(128 bytes @ 0x08000200) -- Updating C cache (128 bytes @ 0x08000200) -- Read from C cache (60 bytes @ 0x08000228) - Data: 10 3A 28 BF 78 C1 FB D8 52 07 28 BF 30 C1 48 BF ...  returns 0x00 (0001ms, 0884ms total)
T4040 001:015 JLINK_ReadMem (0x08000264, 0x003C Bytes, ...) -- CPU_ReadMem(64 bytes @ 0x08000280) -- Updating C cache (64 bytes @ 0x08000280) -- Read from C cache (60 bytes @ 0x08000264) - Data: CB F9 00 00 2C 4B 19 68 08 68 B0 E8 F0 4F 80 F3 ...  returns 0x00 (0001ms, 0885ms total)
T4040 001:016 JLINK_ReadMem (0x080002A0, 0x003C Bytes, ...) -- CPU_ReadMem(64 bytes @ 0x080002C0) -- Updating C cache (64 bytes @ 0x080002C0) -- Read from C cache (60 bytes @ 0x080002A0) - Data: 4F 8F BF F3 6F 8F 00 DF 00 BF 00 BF 08 ED 00 E0 ...  returns 0x00 (0000ms, 0885ms total)
T4040 001:016 JLINK_ReadMem (0x080002DC, 0x003C Bytes, ...) -- CPU_ReadMem(64 bytes @ 0x08000300) -- Updating C cache (64 bytes @ 0x08000300) -- Read from C cache (60 bytes @ 0x080002DC) - Data: F0 4F 10 60 09 B4 4F F0 50 00 80 F3 11 88 BF F3 ...  returns 0x00 (0001ms, 0886ms total)
T4040 001:017 JLINK_ReadMem (0x08000318, 0x003C Bytes, ...) -- CPU_ReadMem(64 bytes @ 0x08000340) -- Updating C cache (64 bytes @ 0x08000340) -- Read from C cache (60 bytes @ 0x08000318) - Data: 6F 8F 70 47 1C 00 00 20 EF F3 05 80 70 47 00 00 ...  returns 0x00 (0000ms, 0886ms total)
T2DDC 002:675 JLINK_SetBPEx(Addr = 0x08004E24, Type = 0xFFFFFFF2)  returns 0x00000001 (0001ms, 0887ms total)
T2DDC 002:676 JLINK_SetBPEx(Addr = 0x08005218, Type = 0xFFFFFFF2)  returns 0x00000002 (0000ms, 0887ms total)
T2DDC 002:676 JLINK_SetBPEx(Addr = 0x080051E8, Type = 0xFFFFFFF2)  returns 0x00000003 (0000ms, 0887ms total)
T2DDC 002:676 JLINK_SetBPEx(Addr = 0x08006EAC, Type = 0xFFFFFFF2)  returns 0x00000004 (0000ms, 0887ms total)
T2DDC 002:676 JLINK_SetBPEx(Addr = 0x0800562E, Type = 0xFFFFFFF2)  returns 0x00000005 (0000ms, 0887ms total)
T2DDC 002:676 JLINK_Go() -- CPU_WriteMem(4 bytes @ 0xE0002000) -- CPU_WriteMem(4 bytes @ 0xE0002000) -- CPU_WriteMem(4 bytes @ 0xE0002000) -- CPU_WriteMem(4 bytes @ 0xE0002000) -- CPU_WriteMem(4 bytes @ 0xE0002000) -- CPU_ReadMem(4 bytes @ 0xE0001000) -- CPU_WriteMem(4 bytes @ 0xE0002008) -- CPU_WriteMem(4 bytes @ 0xE000200C) -- CPU_WriteMem(4 bytes @ 0xE0002010) -- CPU_WriteMem(4 bytes @ 0xE0002014) -- CPU_WriteMem(4 bytes @ 0xE0002018) -- CPU_WriteMem(4 bytes @ 0xE000201C)
 -- CPU_WriteMem(4 bytes @ 0xE0001004) (0003ms, 0890ms total)
T2DDC 002:780 JLINK_IsHalted()  returns TRUE (0001ms, 0891ms total)
T2DDC 002:781 JLINK_Halt()  returns 0x00 (0000ms, 0890ms total)
T2DDC 002:781 JLINK_IsHalted()  returns TRUE (0000ms, 0890ms total)
T2DDC 002:781 JLINK_IsHalted()  returns TRUE (0000ms, 0890ms total)
T2DDC 002:781 JLINK_IsHalted()  returns TRUE (0000ms, 0890ms total)
T2DDC 002:781 JLINK_ReadReg(R15 (PC))  returns 0x08004E24 (0000ms, 0890ms total)
T2DDC 002:781 JLINK_ReadReg(XPSR)  returns 0x21000000 (0000ms, 0890ms total)
T2DDC 002:781 JLINK_ClrBPEx(BPHandle = 0x00000001)  returns 0x00 (0000ms, 0890ms total)
T2DDC 002:781 JLINK_ClrBPEx(BPHandle = 0x00000002)  returns 0x00 (0000ms, 0890ms total)
T2DDC 002:781 JLINK_ClrBPEx(BPHandle = 0x00000003)  returns 0x00 (0000ms, 0890ms total)
T2DDC 002:781 JLINK_ClrBPEx(BPHandle = 0x00000004)  returns 0x00 (0000ms, 0890ms total)
T2DDC 002:781 JLINK_ClrBPEx(BPHandle = 0x00000005)  returns 0x00 (0000ms, 0890ms total)
T2DDC 002:781 JLINK_ReadMemU32(0xE000ED30, 0x0001 Items, ...) -- CPU_ReadMem(4 bytes @ 0xE000ED30) - Data: 03 00 00 00  returns 0x01 (0001ms, 0891ms total)
T2DDC 002:782 JLINK_ReadMemU32(0xE0001028, 0x0001 Items, ...) -- CPU_ReadMem(4 bytes @ 0xE0001028) - Data: 00 00 00 00  returns 0x01 (0000ms, 0891ms total)
T2DDC 002:782 JLINK_ReadMemU32(0xE0001038, 0x0001 Items, ...) -- CPU_ReadMem(4 bytes @ 0xE0001038) - Data: 00 02 00 00  returns 0x01 (0000ms, 0891ms total)
T2DDC 002:782 JLINK_ReadMemU32(0xE0001048, 0x0001 Items, ...) -- CPU_ReadMem(4 bytes @ 0xE0001048) - Data: 00 00 00 00  returns 0x01 (0001ms, 0892ms total)
T2DDC 002:783 JLINK_ReadMemU32(0xE0001058, 0x0001 Items, ...) -- CPU_ReadMem(4 bytes @ 0xE0001058) - Data: 00 00 00 00  returns 0x01 (0000ms, 0892ms total)
T2DDC 002:783 JLINK_ReadReg(R0)  returns 0x20006458 (0000ms, 0892ms total)
T2DDC 002:783 JLINK_ReadReg(R1)  returns 0x20006858 (0000ms, 0892ms total)
T2DDC 002:783 JLINK_ReadReg(R2)  returns 0x20006858 (0000ms, 0892ms total)
T2DDC 002:783 JLINK_ReadReg(R3)  returns 0x20006858 (0000ms, 0892ms total)
T2DDC 002:783 JLINK_ReadReg(R4)  returns 0x00000000 (0000ms, 0892ms total)
T2DDC 002:783 JLINK_ReadReg(R5)  returns 0x200063F4 (0000ms, 0892ms total)
T2DDC 002:783 JLINK_ReadReg(R6)  returns 0x00000000 (0000ms, 0892ms total)
T2DDC 002:783 JLINK_ReadReg(R7)  returns 0x00000000 (0000ms, 0892ms total)
T2DDC 002:783 JLINK_ReadReg(R8)  returns 0x00000000 (0000ms, 0892ms total)
T2DDC 002:783 JLINK_ReadReg(R9)  returns 0x00000000 (0000ms, 0892ms total)
T2DDC 002:783 JLINK_ReadReg(R10)  returns 0x08008610 (0000ms, 0892ms total)
T2DDC 002:783 JLINK_ReadReg(R11)  returns 0x00000000 (0000ms, 0892ms total)
T2DDC 002:783 JLINK_ReadReg(R12)  returns 0x20006434 (0000ms, 0892ms total)
T2DDC 002:783 JLINK_ReadReg(R13 (SP))  returns 0x20006C58 (0000ms, 0892ms total)
T2DDC 002:783 JLINK_ReadReg(R14)  returns 0x08000257 (0000ms, 0892ms total)
T2DDC 002:783 JLINK_ReadReg(R15 (PC))  returns 0x08004E24 (0000ms, 0892ms total)
T2DDC 002:783 JLINK_ReadReg(XPSR)  returns 0x21000000 (0000ms, 0892ms total)
T2DDC 002:783 JLINK_ReadReg(MSP)  returns 0x20006C58 (0000ms, 0892ms total)
T2DDC 002:783 JLINK_ReadReg(PSP)  returns 0x00000000 (0000ms, 0892ms total)
T2DDC 002:783 JLINK_ReadReg(CFBP)  returns 0x04000000 (0000ms, 0892ms total)
T2DDC 002:783 JLINK_ReadReg(FPSCR)  returns 0x03000000 (0002ms, 0894ms total)
T2DDC 002:785 JLINK_ReadReg(FPS0)  returns 0x00000000 (0000ms, 0894ms total)
T2DDC 002:785 JLINK_ReadReg(FPS1)  returns 0x00000000 (0000ms, 0894ms total)
T2DDC 002:785 JLINK_ReadReg(FPS2)  returns 0x00000000 (0000ms, 0894ms total)
T2DDC 002:785 JLINK_ReadReg(FPS3)  returns 0x00000000 (0000ms, 0894ms total)
T2DDC 002:785 JLINK_ReadReg(FPS4)  returns 0x00000000 (0000ms, 0894ms total)
T2DDC 002:785 JLINK_ReadReg(FPS5)  returns 0x00000000 (0001ms, 0895ms total)
T2DDC 002:786 JLINK_ReadReg(FPS6)  returns 0x00000000 (0000ms, 0895ms total)
T2DDC 002:786 JLINK_ReadReg(FPS7)  returns 0x00000000 (0000ms, 0895ms total)
T2DDC 002:786 JLINK_ReadReg(FPS8)  returns 0x00000000 (0000ms, 0895ms total)
T2DDC 002:786 JLINK_ReadReg(FPS9)  returns 0x00000000 (0000ms, 0895ms total)
T2DDC 002:786 JLINK_ReadReg(FPS10)  returns 0x00000000 (0000ms, 0895ms total)
T2DDC 002:786 JLINK_ReadReg(FPS11)  returns 0x00000000 (0000ms, 0895ms total)
T2DDC 002:786 JLINK_ReadReg(FPS12)  returns 0x00000000 (0000ms, 0895ms total)
T2DDC 002:786 JLINK_ReadReg(FPS13)  returns 0x00000000 (0000ms, 0895ms total)
T2DDC 002:786 JLINK_ReadReg(FPS14)  returns 0x00000000 (0000ms, 0895ms total)
T2DDC 002:786 JLINK_ReadReg(FPS15)  returns 0x00000000 (0000ms, 0895ms total)
T2DDC 002:786 JLINK_ReadReg(FPS16)  returns 0x00000000 (0000ms, 0895ms total)
T2DDC 002:786 JLINK_ReadReg(FPS17)  returns 0x00000000 (0000ms, 0895ms total)
T2DDC 002:786 JLINK_ReadReg(FPS18)  returns 0x00000000 (0000ms, 0895ms total)
T2DDC 002:786 JLINK_ReadReg(FPS19)  returns 0x00000000 (0000ms, 0895ms total)
T2DDC 002:786 JLINK_ReadReg(FPS20)  returns 0x00000000 (0000ms, 0895ms total)
T2DDC 002:786 JLINK_ReadReg(FPS21)  returns 0x00000000 (0000ms, 0895ms total)
T2DDC 002:786 JLINK_ReadReg(FPS22)  returns 0x00000000 (0000ms, 0895ms total)
T2DDC 002:786 JLINK_ReadReg(FPS23)  returns 0x00000000 (0000ms, 0895ms total)
T2DDC 002:786 JLINK_ReadReg(FPS24)  returns 0x00000000 (0000ms, 0895ms total)
T2DDC 002:786 JLINK_ReadReg(FPS25)  returns 0x00000000 (0000ms, 0895ms total)
T2DDC 002:786 JLINK_ReadReg(FPS26)  returns 0x00000000 (0000ms, 0895ms total)
T2DDC 002:786 JLINK_ReadReg(FPS27)  returns 0x00000000 (0000ms, 0895ms total)
T2DDC 002:786 JLINK_ReadReg(FPS28)  returns 0x00000000 (0000ms, 0895ms total)
T2DDC 002:786 JLINK_ReadReg(FPS29)  returns 0x00000000 (0000ms, 0895ms total)
T2DDC 002:786 JLINK_ReadReg(FPS30)  returns 0x00000000 (0000ms, 0895ms total)
T2DDC 002:786 JLINK_ReadReg(FPS31)  returns 0x00000000 (0000ms, 0895ms total)
T4040 002:793 JLINK_ReadMem (0x08004D24, 0x003C Bytes, ...) -- CPU_ReadMem(128 bytes @ 0x08004D00) -- Updating C cache (128 bytes @ 0x08004D00) -- Read from C cache (60 bytes @ 0x08004D24) - Data: 40 1C 03 F8 14 20 03 EB 44 02 C0 B2 91 70 D1 70 ...  returns 0x00 (0001ms, 0896ms total)
T4040 002:794 JLINK_ReadMem (0x08004D60, 0x003C Bytes, ...) -- CPU_ReadMem(64 bytes @ 0x08004D80) -- Updating C cache (64 bytes @ 0x08004D80) -- Read from C cache (60 bytes @ 0x08004D60) - Data: 81 42 01 D0 28 55 01 26 64 1C E4 B2 04 2C F5 D3 ...  returns 0x00 (0001ms, 0897ms total)
T4040 002:795 JLINK_ReadMem (0x08004D9C, 0x003C Bytes, ...) -- CPU_ReadMem(64 bytes @ 0x08004DC0) -- Updating C cache (64 bytes @ 0x08004DC0) -- Read from C cache (60 bytes @ 0x08004D9C) - Data: ED D3 64 1C E4 B2 04 2C E7 D3 BD E8 F0 41 01 21 ...  returns 0x00 (0000ms, 0897ms total)
T4040 002:795 JLINK_ReadMem (0x08004DD8, 0x003C Bytes, ...) -- CPU_ReadMem(64 bytes @ 0x08004E00) -- Updating C cache (64 bytes @ 0x08004E00) -- Read from C cache (60 bytes @ 0x08004DD8) - Data: 10 40 0D 20 FF F7 70 BA 10 BD 10 B5 00 20 FF F7 ...  returns 0x00 (0001ms, 0898ms total)
T4040 002:796 JLINK_ReadMem (0x08004E14, 0x003C Bytes, ...) -- CPU_ReadMem(64 bytes @ 0x08004E40) -- Updating C cache (64 bytes @ 0x08004E40) -- Read from C cache (60 bytes @ 0x08004E14) - Data: FD F7 D2 FC BD E8 10 40 01 20 FF F7 69 BA 00 00 ...  returns 0x00 (0000ms, 0898ms total)
T2DDC 004:083 JLINK_SetBPEx(Addr = 0x08005218, Type = 0xFFFFFFF2)  returns 0x00000006 (0000ms, 0898ms total)
T2DDC 004:083 JLINK_SetBPEx(Addr = 0x080051E8, Type = 0xFFFFFFF2)  returns 0x00000007 (0000ms, 0898ms total)
T2DDC 004:083 JLINK_SetBPEx(Addr = 0x08006EAC, Type = 0xFFFFFFF2)  returns 0x00000008 (0000ms, 0898ms total)
T2DDC 004:084 JLINK_SetBPEx(Addr = 0x0800562E, Type = 0xFFFFFFF2)  returns 0x00000009 (0000ms, 0899ms total)
T2DDC 004:084 JLINK_Go() -- CPU_WriteMem(4 bytes @ 0xE0002000) -- CPU_WriteMem(4 bytes @ 0xE0002000) -- CPU_WriteMem(4 bytes @ 0xE0002000) -- CPU_WriteMem(4 bytes @ 0xE0002000) -- CPU_ReadMem(4 bytes @ 0xE0001000) -- CPU_WriteMem(4 bytes @ 0xE0002008) -- CPU_WriteMem(4 bytes @ 0xE000200C) -- CPU_WriteMem(4 bytes @ 0xE0002010) -- CPU_WriteMem(4 bytes @ 0xE0002014) -- CPU_WriteMem(4 bytes @ 0xE0002018) (0003ms, 0902ms total)
T2DDC 004:188 JLINK_IsHalted()  returns FALSE (0000ms, 0902ms total)
T2DDC 004:288 JLINK_IsHalted()  returns FALSE (0000ms, 0902ms total)
T2DDC 004:389 JLINK_IsHalted()  returns FALSE (0000ms, 0902ms total)
T2DDC 004:490 JLINK_IsHalted()  returns FALSE (0000ms, 0902ms total)
T2DDC 004:591 JLINK_IsHalted()  returns FALSE (0000ms, 0902ms total)
T2DDC 004:691 JLINK_ReadMemU32(0xE0001004, 0x0001 Items, ...) -- CPU is running -- CPU_ReadMem(4 bytes @ 0xE0001004) - Data: 73 0E 0D 06  returns 0x01 (0001ms, 0903ms total)
T2DDC 004:695 JLINK_IsHalted()  returns FALSE (0001ms, 0904ms total)
T2DDC 004:796 JLINK_IsHalted()  returns FALSE (0001ms, 0904ms total)
T2DDC 004:898 JLINK_IsHalted()  returns FALSE (0000ms, 0903ms total)
T2DDC 004:999 JLINK_IsHalted()  returns FALSE (0000ms, 0903ms total)
T2DDC 005:100 JLINK_IsHalted()  returns FALSE (0000ms, 0903ms total)
T2DDC 005:201 JLINK_ReadMemU32(0xE0001004, 0x0001 Items, ...) -- CPU is running -- CPU_ReadMem(4 bytes @ 0xE0001004) - Data: 63 5E 27 0B  returns 0x01 (0000ms, 0903ms total)
T2DDC 005:204 JLINK_IsHalted()  returns FALSE (0000ms, 0903ms total)
T2DDC 005:305 JLINK_IsHalted()  returns FALSE (0001ms, 0904ms total)
T2DDC 005:406 JLINK_IsHalted()  returns FALSE (0000ms, 0903ms total)
T2DDC 005:507 JLINK_IsHalted()  returns FALSE (0000ms, 0903ms total)
T2DDC 005:608 JLINK_IsHalted()  returns FALSE (0000ms, 0903ms total)
T2DDC 005:709 JLINK_IsHalted()  returns FALSE (0000ms, 0903ms total)
T2DDC 005:810 JLINK_ReadMemU32(0xE0001004, 0x0001 Items, ...) -- CPU is running -- CPU_ReadMem(4 bytes @ 0xE0001004) - Data: 4C 61 40 11  returns 0x01 (0000ms, 0903ms total)
T2DDC 005:813 JLINK_IsHalted()  returns FALSE (0000ms, 0903ms total)
T2DDC 005:914 JLINK_IsHalted()  returns FALSE (0000ms, 0903ms total)
T2DDC 006:015 JLINK_IsHalted()  returns FALSE (0001ms, 0904ms total)
T2DDC 006:116 JLINK_IsHalted()  returns FALSE (0000ms, 0903ms total)
T2DDC 006:217 JLINK_IsHalted()  returns FALSE (0000ms, 0903ms total)
T2DDC 006:318 JLINK_IsHalted()  returns FALSE (0000ms, 0903ms total)
T2DDC 006:418 JLINK_ReadMemU32(0xE0001004, 0x0001 Items, ...) -- CPU is running -- CPU_ReadMem(4 bytes @ 0xE0001004) - Data: 52 03 59 17  returns 0x01 (0000ms, 0903ms total)
T2DDC 006:421 JLINK_IsHalted()  returns FALSE (0001ms, 0904ms total)
T2DDC 006:523 JLINK_IsHalted()  returns TRUE (0002ms, 0905ms total)
T2DDC 006:525 JLINK_Halt()  returns 0x00 (0000ms, 0903ms total)
T2DDC 006:525 JLINK_IsHalted()  returns TRUE (0000ms, 0903ms total)
T2DDC 006:525 JLINK_IsHalted()  returns TRUE (0000ms, 0903ms total)
T2DDC 006:525 JLINK_IsHalted()  returns TRUE (0000ms, 0903ms total)
T2DDC 006:525 JLINK_ReadReg(R15 (PC))  returns 0x08006EAC (0000ms, 0903ms total)
T2DDC 006:525 JLINK_ReadReg(XPSR)  returns 0x61000000 (0000ms, 0903ms total)
T2DDC 006:525 JLINK_ClrBPEx(BPHandle = 0x00000006)  returns 0x00 (0000ms, 0903ms total)
T2DDC 006:525 JLINK_ClrBPEx(BPHandle = 0x00000007)  returns 0x00 (0000ms, 0903ms total)
T2DDC 006:525 JLINK_ClrBPEx(BPHandle = 0x00000008)  returns 0x00 (0000ms, 0903ms total)
T2DDC 006:525 JLINK_ClrBPEx(BPHandle = 0x00000009)  returns 0x00 (0000ms, 0903ms total)
T2DDC 006:525 JLINK_ReadMemU32(0xE000ED30, 0x0001 Items, ...) -- CPU_ReadMem(4 bytes @ 0xE000ED30) - Data: 03 00 00 00  returns 0x01 (0000ms, 0903ms total)
T2DDC 006:525 JLINK_ReadMemU32(0xE0001028, 0x0001 Items, ...) -- CPU_ReadMem(4 bytes @ 0xE0001028) - Data: 00 00 00 00  returns 0x01 (0000ms, 0903ms total)
T2DDC 006:525 JLINK_ReadMemU32(0xE0001038, 0x0001 Items, ...) -- CPU_ReadMem(4 bytes @ 0xE0001038) - Data: 00 02 00 00  returns 0x01 (0001ms, 0904ms total)
T2DDC 006:526 JLINK_ReadMemU32(0xE0001048, 0x0001 Items, ...) -- CPU_ReadMem(4 bytes @ 0xE0001048) - Data: 00 00 00 00  returns 0x01 (0000ms, 0904ms total)
T2DDC 006:526 JLINK_ReadMemU32(0xE0001058, 0x0001 Items, ...) -- CPU_ReadMem(4 bytes @ 0xE0001058) - Data: 00 00 00 00  returns 0x01 (0000ms, 0904ms total)
T2DDC 006:526 JLINK_ReadReg(R0)  returns 0x00000001 (0000ms, 0904ms total)
T2DDC 006:526 JLINK_ReadReg(R1)  returns 0x000001F4 (0000ms, 0904ms total)
T2DDC 006:526 JLINK_ReadReg(R2)  returns 0x00000000 (0000ms, 0904ms total)
T2DDC 006:526 JLINK_ReadReg(R3)  returns 0x00000633 (0000ms, 0904ms total)
T2DDC 006:526 JLINK_ReadReg(R4)  returns 0x200004A8 (0000ms, 0904ms total)
T2DDC 006:526 JLINK_ReadReg(R5)  returns 0x00000000 (0000ms, 0904ms total)
T2DDC 006:526 JLINK_ReadReg(R6)  returns 0xFFFFF9CD (0000ms, 0904ms total)
T2DDC 006:526 JLINK_ReadReg(R7)  returns 0x00000001 (0000ms, 0904ms total)
T2DDC 006:526 JLINK_ReadReg(R8)  returns 0x00000007 (0000ms, 0904ms total)
T2DDC 006:526 JLINK_ReadReg(R9)  returns 0x00000001 (0000ms, 0904ms total)
T2DDC 006:526 JLINK_ReadReg(R10)  returns 0x20000448 (0000ms, 0904ms total)
T2DDC 006:526 JLINK_ReadReg(R11)  returns 0x200026A0 (0000ms, 0904ms total)
T2DDC 006:526 JLINK_ReadReg(R12)  returns 0x00000081 (0000ms, 0904ms total)
T2DDC 006:526 JLINK_ReadReg(R13 (SP))  returns 0x200026A0 (0001ms, 0905ms total)
T2DDC 006:527 JLINK_ReadReg(R14)  returns 0x00000008 (0000ms, 0905ms total)
T2DDC 006:527 JLINK_ReadReg(R15 (PC))  returns 0x08006EAC (0000ms, 0905ms total)
T2DDC 006:527 JLINK_ReadReg(XPSR)  returns 0x61000000 (0000ms, 0905ms total)
T2DDC 006:527 JLINK_ReadReg(MSP)  returns 0x20006C38 (0000ms, 0905ms total)
T2DDC 006:527 JLINK_ReadReg(PSP)  returns 0x200026A0 (0000ms, 0905ms total)
T2DDC 006:527 JLINK_ReadReg(CFBP)  returns 0x06000000 (0000ms, 0905ms total)
T2DDC 006:527 JLINK_ReadReg(FPSCR)  returns 0x00000000 (0002ms, 0907ms total)
T2DDC 006:529 JLINK_ReadReg(FPS0)  returns 0x00000000 (0000ms, 0907ms total)
T2DDC 006:529 JLINK_ReadReg(FPS1)  returns 0xC385DAE1 (0000ms, 0907ms total)
T2DDC 006:529 JLINK_ReadReg(FPS2)  returns 0x00000000 (0000ms, 0907ms total)
T2DDC 006:529 JLINK_ReadReg(FPS3)  returns 0x00000000 (0000ms, 0907ms total)
T2DDC 006:529 JLINK_ReadReg(FPS4)  returns 0x00000000 (0000ms, 0907ms total)
T2DDC 006:529 JLINK_ReadReg(FPS5)  returns 0x00000000 (0000ms, 0907ms total)
T2DDC 006:529 JLINK_ReadReg(FPS6)  returns 0x00000000 (0000ms, 0907ms total)
T2DDC 006:529 JLINK_ReadReg(FPS7)  returns 0x00000000 (0000ms, 0907ms total)
T2DDC 006:529 JLINK_ReadReg(FPS8)  returns 0x00000000 (0000ms, 0907ms total)
T2DDC 006:529 JLINK_ReadReg(FPS9)  returns 0x00000000 (0000ms, 0907ms total)
T2DDC 006:529 JLINK_ReadReg(FPS10)  returns 0x00000000 (0000ms, 0907ms total)
T2DDC 006:529 JLINK_ReadReg(FPS11)  returns 0x00000000 (0000ms, 0907ms total)
T2DDC 006:529 JLINK_ReadReg(FPS12)  returns 0x00000000 (0000ms, 0907ms total)
T2DDC 006:529 JLINK_ReadReg(FPS13)  returns 0x00000000 (0000ms, 0907ms total)
T2DDC 006:529 JLINK_ReadReg(FPS14)  returns 0x00000000 (0000ms, 0907ms total)
T2DDC 006:529 JLINK_ReadReg(FPS15)  returns 0x00000000 (0000ms, 0907ms total)
T2DDC 006:529 JLINK_ReadReg(FPS16)  returns 0x00000000 (0000ms, 0907ms total)
T2DDC 006:529 JLINK_ReadReg(FPS17)  returns 0x00000000 (0000ms, 0907ms total)
T2DDC 006:529 JLINK_ReadReg(FPS18)  returns 0x00000000 (0000ms, 0907ms total)
T2DDC 006:529 JLINK_ReadReg(FPS19)  returns 0x00000000 (0000ms, 0907ms total)
T2DDC 006:529 JLINK_ReadReg(FPS20)  returns 0x00000000 (0000ms, 0907ms total)
T2DDC 006:529 JLINK_ReadReg(FPS21)  returns 0x00000000 (0000ms, 0907ms total)
T2DDC 006:529 JLINK_ReadReg(FPS22)  returns 0x00000000 (0000ms, 0907ms total)
T2DDC 006:529 JLINK_ReadReg(FPS23)  returns 0x00000000 (0000ms, 0907ms total)
T2DDC 006:529 JLINK_ReadReg(FPS24)  returns 0x00000000 (0000ms, 0907ms total)
T2DDC 006:529 JLINK_ReadReg(FPS25)  returns 0x00000000 (0000ms, 0907ms total)
T2DDC 006:529 JLINK_ReadReg(FPS26)  returns 0x00000000 (0000ms, 0907ms total)
T2DDC 006:529 JLINK_ReadReg(FPS27)  returns 0x00000000 (0000ms, 0907ms total)
T2DDC 006:529 JLINK_ReadReg(FPS28)  returns 0x00000000 (0000ms, 0907ms total)
T2DDC 006:529 JLINK_ReadReg(FPS29)  returns 0x00000000 (0000ms, 0907ms total)
T2DDC 006:529 JLINK_ReadReg(FPS30)  returns 0x00000000 (0000ms, 0907ms total)
T2DDC 006:529 JLINK_ReadReg(FPS31)  returns 0x00000000 (0000ms, 0907ms total)
T4040 006:529 JLINK_ReadMem (0x20002744, 0x0004 Bytes, ...) -- CPU_ReadMem(64 bytes @ 0x20002740) -- Updating C cache (64 bytes @ 0x20002740) -- Read from C cache (4 bytes @ 0x20002744) - Data: 35 61 00 08  returns 0x00 (0001ms, 0908ms total)
T4040 006:530 JLINK_ReadMem (0x20002724, 0x0004 Bytes, ...) -- CPU_ReadMem(64 bytes @ 0x20002700) -- Updating C cache (64 bytes @ 0x20002700) -- Read from C cache (4 bytes @ 0x20002724) - Data: F0 04 00 20  returns 0x00 (0000ms, 0908ms total)
T4040 006:530 JLINK_ReadMem (0x20002728, 0x0004 Bytes, ...) -- Read from C cache (4 bytes @ 0x20002728) - Data: 00 00 00 00  returns 0x00 (0000ms, 0908ms total)
T4040 006:530 JLINK_ReadMem (0x2000272C, 0x0004 Bytes, ...) -- Read from C cache (4 bytes @ 0x2000272C) - Data: 48 04 00 20  returns 0x00 (0000ms, 0908ms total)
T4040 006:530 JLINK_ReadMem (0x20002730, 0x0004 Bytes, ...) -- Read from C cache (4 bytes @ 0x20002730) - Data: 00 00 00 00  returns 0x00 (0000ms, 0908ms total)
T4040 006:530 JLINK_ReadMem (0x20002734, 0x0004 Bytes, ...) -- Read from C cache (4 bytes @ 0x20002734) - Data: 00 00 00 00  returns 0x00 (0000ms, 0908ms total)
T4040 006:530 JLINK_ReadMem (0x20002738, 0x0004 Bytes, ...) -- Read from C cache (4 bytes @ 0x20002738) - Data: 00 00 00 00  returns 0x00 (0000ms, 0908ms total)
T4040 006:530 JLINK_ReadMem (0x2000273C, 0x0004 Bytes, ...) -- Read from C cache (4 bytes @ 0x2000273C) - Data: 00 00 00 00  returns 0x00 (0000ms, 0908ms total)
T4040 006:530 JLINK_ReadMem (0x20002740, 0x0004 Bytes, ...) -- Read from C cache (4 bytes @ 0x20002740) - Data: 00 00 00 00  returns 0x00 (0000ms, 0908ms total)
T4040 006:530 JLINK_ReadMem (0x20002754, 0x0004 Bytes, ...) -- Read from C cache (4 bytes @ 0x20002754) - Data: AF 71 00 08  returns 0x00 (0000ms, 0908ms total)
T4040 006:530 JLINK_ReadMem (0x20002748, 0x0004 Bytes, ...) -- Read from C cache (4 bytes @ 0x20002748) - Data: 00 00 00 00  returns 0x00 (0000ms, 0908ms total)
T4040 006:530 JLINK_ReadMem (0x2000274C, 0x0004 Bytes, ...) -- Read from C cache (4 bytes @ 0x2000274C) - Data: 00 00 00 00  returns 0x00 (0000ms, 0908ms total)
T4040 006:530 JLINK_ReadMem (0x20002750, 0x0004 Bytes, ...) -- Read from C cache (4 bytes @ 0x20002750) - Data: 00 00 00 00  returns 0x00 (0000ms, 0908ms total)
T4040 006:530 JLINK_ReadMem (0x2000275C, 0x0004 Bytes, ...) -- Read from C cache (4 bytes @ 0x2000275C) - Data: BF 3F 00 08  returns 0x00 (0000ms, 0908ms total)
T4040 006:532 JLINK_ReadMem (0x20002758, 0x0004 Bytes, ...) -- Read from C cache (4 bytes @ 0x20002758) - Data: 00 00 00 00  returns 0x00 (0000ms, 0908ms total)
T4040 006:532 JLINK_ReadMem (0x20002764, 0x0004 Bytes, ...) -- Read from C cache (4 bytes @ 0x20002764) - Data: 53 37 00 08  returns 0x00 (0000ms, 0908ms total)
T4040 006:532 JLINK_ReadMem (0x20002760, 0x0004 Bytes, ...) -- Read from C cache (4 bytes @ 0x20002760) - Data: 00 00 00 00  returns 0x00 (0000ms, 0908ms total)
T4040 006:533 JLINK_ReadMem (0x200004BB, 0x0001 Bytes, ...) -- CPU_ReadMem(64 bytes @ 0x20000480) -- Updating C cache (64 bytes @ 0x20000480) -- Read from C cache (1 bytes @ 0x200004BB) - Data: 81  returns 0x00 (0001ms, 0909ms total)
T4040 006:534 JLINK_ReadMem (0x20002720, 0x0001 Bytes, ...) -- Read from C cache (1 bytes @ 0x20002720) - Data: 00  returns 0x00 (0000ms, 0909ms total)
T4040 006:534 JLINK_ReadMem (0x00000000, 0x0002 Bytes, ...) -- CPU_ReadMem(4 bytes @ 0x00000004) -- CPU_ReadMem(64 bytes @ 0x08000000) -- Updating C cache (64 bytes @ 0x08000000) -- Read from C cache (2 bytes @ 0x08000000) - Data: 58 6C  returns 0x00 (0001ms, 0910ms total)
T4040 006:541 JLINK_ReadMem (0x08006EA0, 0x003C Bytes, ...) -- CPU_ReadMem(128 bytes @ 0x08006E80) -- Updating C cache (128 bytes @ 0x08006E80) -- Read from C cache (60 bytes @ 0x08006EA0) - Data: A7 48 48 30 B0 F8 6A 02 01 28 E3 D1 FF F7 C4 FD ...  returns 0x00 (0001ms, 0911ms total)
T2DDC 010:361 JLINK_SetBPEx(Addr = 0x08005218, Type = 0xFFFFFFF2)  returns 0x0000000A (0001ms, 0912ms total)
T2DDC 010:362 JLINK_SetBPEx(Addr = 0x080051E8, Type = 0xFFFFFFF2)  returns 0x0000000B (0000ms, 0912ms total)
T2DDC 010:362 JLINK_SetBPEx(Addr = 0x0800562E, Type = 0xFFFFFFF2)  returns 0x0000000C (0000ms, 0912ms total)
T2DDC 010:362 JLINK_Go() -- CPU_WriteMem(4 bytes @ 0xE0002000) -- CPU_WriteMem(4 bytes @ 0xE0002000) -- CPU_WriteMem(4 bytes @ 0xE0002000) -- CPU_ReadMem(4 bytes @ 0xE0001000) -- CPU_WriteMem(4 bytes @ 0xE0002010) -- CPU_WriteMem(4 bytes @ 0xE0002014) (0002ms, 0914ms total)
T2DDC 010:464 JLINK_IsHalted()  returns TRUE (0002ms, 0916ms total)
T2DDC 010:466 JLINK_Halt()  returns 0x00 (0000ms, 0914ms total)
T2DDC 010:466 JLINK_IsHalted()  returns TRUE (0000ms, 0914ms total)
T2DDC 010:466 JLINK_IsHalted()  returns TRUE (0000ms, 0914ms total)
T2DDC 010:466 JLINK_IsHalted()  returns TRUE (0000ms, 0914ms total)
T2DDC 010:466 JLINK_ReadReg(R15 (PC))  returns 0x0800562E (0000ms, 0914ms total)
T2DDC 010:466 JLINK_ReadReg(XPSR)  returns 0x61000000 (0000ms, 0914ms total)
T2DDC 010:466 JLINK_ClrBPEx(BPHandle = 0x0000000A)  returns 0x00 (0000ms, 0914ms total)
T2DDC 010:466 JLINK_ClrBPEx(BPHandle = 0x0000000B)  returns 0x00 (0000ms, 0914ms total)
T2DDC 010:466 JLINK_ClrBPEx(BPHandle = 0x0000000C)  returns 0x00 (0000ms, 0914ms total)
T2DDC 010:466 JLINK_ReadMemU32(0xE000ED30, 0x0001 Items, ...) -- CPU_ReadMem(4 bytes @ 0xE000ED30) - Data: 03 00 00 00  returns 0x01 (0000ms, 0914ms total)
T2DDC 010:466 JLINK_ReadMemU32(0xE0001028, 0x0001 Items, ...) -- CPU_ReadMem(4 bytes @ 0xE0001028) - Data: 00 00 00 00  returns 0x01 (0001ms, 0915ms total)
T2DDC 010:467 JLINK_ReadMemU32(0xE0001038, 0x0001 Items, ...) -- CPU_ReadMem(4 bytes @ 0xE0001038) - Data: 00 02 00 00  returns 0x01 (0000ms, 0915ms total)
T2DDC 010:467 JLINK_ReadMemU32(0xE0001048, 0x0001 Items, ...) -- CPU_ReadMem(4 bytes @ 0xE0001048) - Data: 00 00 00 00  returns 0x01 (0001ms, 0916ms total)
T2DDC 010:468 JLINK_ReadMemU32(0xE0001058, 0x0001 Items, ...) -- CPU_ReadMem(4 bytes @ 0xE0001058) - Data: 00 00 00 00  returns 0x01 (0000ms, 0916ms total)
T2DDC 010:468 JLINK_ReadReg(R0)  returns 0x00000000 (0000ms, 0916ms total)
T2DDC 010:468 JLINK_ReadReg(R1)  returns 0x20005F3C (0000ms, 0916ms total)
T2DDC 010:468 JLINK_ReadReg(R2)  returns 0x200000AC (0000ms, 0916ms total)
T2DDC 010:468 JLINK_ReadReg(R3)  returns 0x00000008 (0000ms, 0916ms total)
T2DDC 010:468 JLINK_ReadReg(R4)  returns 0x00000010 (0000ms, 0916ms total)
T2DDC 010:468 JLINK_ReadReg(R5)  returns 0x20005F00 (0000ms, 0916ms total)
T2DDC 010:468 JLINK_ReadReg(R6)  returns 0x20005E80 (0000ms, 0916ms total)
T2DDC 010:468 JLINK_ReadReg(R7)  returns 0x20005EC0 (0000ms, 0916ms total)
T2DDC 010:468 JLINK_ReadReg(R8)  returns 0x20005F60 (0000ms, 0916ms total)
T2DDC 010:468 JLINK_ReadReg(R9)  returns 0x20005EC0 (0000ms, 0916ms total)
T2DDC 010:468 JLINK_ReadReg(R10)  returns 0x20005E80 (0000ms, 0916ms total)
T2DDC 010:468 JLINK_ReadReg(R11)  returns 0x20005F40 (0001ms, 0917ms total)
T2DDC 010:469 JLINK_ReadReg(R12)  returns 0x00000000 (0000ms, 0917ms total)
T2DDC 010:469 JLINK_ReadReg(R13 (SP))  returns 0x20002638 (0000ms, 0917ms total)
T2DDC 010:469 JLINK_ReadReg(R14)  returns 0x0800559F (0000ms, 0917ms total)
T2DDC 010:469 JLINK_ReadReg(R15 (PC))  returns 0x0800562E (0000ms, 0917ms total)
T2DDC 010:469 JLINK_ReadReg(XPSR)  returns 0x61000000 (0000ms, 0917ms total)
T2DDC 010:469 JLINK_ReadReg(MSP)  returns 0x20006C38 (0000ms, 0917ms total)
T2DDC 010:469 JLINK_ReadReg(PSP)  returns 0x20002638 (0000ms, 0917ms total)
T2DDC 010:469 JLINK_ReadReg(CFBP)  returns 0x06000000 (0000ms, 0917ms total)
T2DDC 010:469 JLINK_ReadReg(FPSCR)  returns 0x80000010 (0003ms, 0920ms total)
T2DDC 010:472 JLINK_ReadReg(FPS0)  returns 0x00000000 (0000ms, 0920ms total)
T2DDC 010:472 JLINK_ReadReg(FPS1)  returns 0x3F000000 (0000ms, 0920ms total)
T2DDC 010:472 JLINK_ReadReg(FPS2)  returns 0x00000000 (0000ms, 0920ms total)
T2DDC 010:472 JLINK_ReadReg(FPS3)  returns 0x3FF19999 (0000ms, 0920ms total)
T2DDC 010:472 JLINK_ReadReg(FPS4)  returns 0x00000000 (0000ms, 0920ms total)
T2DDC 010:472 JLINK_ReadReg(FPS5)  returns 0x00000000 (0000ms, 0920ms total)
T2DDC 010:472 JLINK_ReadReg(FPS6)  returns 0x00000000 (0000ms, 0920ms total)
T2DDC 010:472 JLINK_ReadReg(FPS7)  returns 0x00000000 (0000ms, 0920ms total)
T2DDC 010:472 JLINK_ReadReg(FPS8)  returns 0x00000000 (0000ms, 0920ms total)
T2DDC 010:472 JLINK_ReadReg(FPS9)  returns 0x00000000 (0000ms, 0920ms total)
T2DDC 010:472 JLINK_ReadReg(FPS10)  returns 0x00000000 (0000ms, 0920ms total)
T2DDC 010:472 JLINK_ReadReg(FPS11)  returns 0x00000000 (0000ms, 0920ms total)
T2DDC 010:472 JLINK_ReadReg(FPS12)  returns 0x00000000 (0000ms, 0920ms total)
T2DDC 010:472 JLINK_ReadReg(FPS13)  returns 0x00000000 (0001ms, 0921ms total)
T2DDC 010:473 JLINK_ReadReg(FPS14)  returns 0x00000000 (0000ms, 0921ms total)
T2DDC 010:473 JLINK_ReadReg(FPS15)  returns 0x00000000 (0000ms, 0921ms total)
T2DDC 010:473 JLINK_ReadReg(FPS16)  returns 0x00000000 (0000ms, 0921ms total)
T2DDC 010:473 JLINK_ReadReg(FPS17)  returns 0x00000000 (0000ms, 0921ms total)
T2DDC 010:473 JLINK_ReadReg(FPS18)  returns 0x00000000 (0000ms, 0921ms total)
T2DDC 010:473 JLINK_ReadReg(FPS19)  returns 0x00000000 (0000ms, 0921ms total)
T2DDC 010:473 JLINK_ReadReg(FPS20)  returns 0x00000000 (0000ms, 0921ms total)
T2DDC 010:473 JLINK_ReadReg(FPS21)  returns 0x00000000 (0000ms, 0921ms total)
T2DDC 010:473 JLINK_ReadReg(FPS22)  returns 0x00000000 (0000ms, 0921ms total)
T2DDC 010:473 JLINK_ReadReg(FPS23)  returns 0x00000000 (0000ms, 0921ms total)
T2DDC 010:473 JLINK_ReadReg(FPS24)  returns 0x00000000 (0000ms, 0921ms total)
T2DDC 010:473 JLINK_ReadReg(FPS25)  returns 0x00000000 (0000ms, 0921ms total)
T2DDC 010:473 JLINK_ReadReg(FPS26)  returns 0x00000000 (0000ms, 0921ms total)
T2DDC 010:473 JLINK_ReadReg(FPS27)  returns 0x00000000 (0000ms, 0921ms total)
T2DDC 010:473 JLINK_ReadReg(FPS28)  returns 0x00000000 (0000ms, 0921ms total)
T2DDC 010:473 JLINK_ReadReg(FPS29)  returns 0x00000000 (0000ms, 0921ms total)
T2DDC 010:473 JLINK_ReadReg(FPS30)  returns 0x00000000 (0000ms, 0921ms total)
T2DDC 010:473 JLINK_ReadReg(FPS31)  returns 0x00000000 (0000ms, 0921ms total)
T4040 010:474 JLINK_ReadMem (0x2000264C, 0x0004 Bytes, ...) -- CPU_ReadMem(64 bytes @ 0x20002640) -- Updating C cache (64 bytes @ 0x20002640) -- Read from C cache (4 bytes @ 0x2000264C) - Data: E5 51 00 08  returns 0x00 (0000ms, 0921ms total)
T4040 010:474 JLINK_ReadMem (0x20002638, 0x0004 Bytes, ...) -- CPU_ReadMem(64 bytes @ 0x20002600) -- Updating C cache (64 bytes @ 0x20002600) -- Read from C cache (4 bytes @ 0x20002638) - Data: A8 04 00 20  returns 0x00 (0001ms, 0922ms total)
T4040 010:475 JLINK_ReadMem (0x2000263C, 0x0004 Bytes, ...) -- Read from C cache (4 bytes @ 0x2000263C) - Data: 80 5F 00 20  returns 0x00 (0000ms, 0922ms total)
T4040 010:475 JLINK_ReadMem (0x20002640, 0x0004 Bytes, ...) -- Read from C cache (4 bytes @ 0x20002640) - Data: 10 00 00 00  returns 0x00 (0000ms, 0922ms total)
T4040 010:475 JLINK_ReadMem (0x20002644, 0x0004 Bytes, ...) -- Read from C cache (4 bytes @ 0x20002644) - Data: 00 00 00 00  returns 0x00 (0000ms, 0922ms total)
T4040 010:475 JLINK_ReadMem (0x20002648, 0x0004 Bytes, ...) -- Read from C cache (4 bytes @ 0x20002648) - Data: 60 5F 00 20  returns 0x00 (0000ms, 0922ms total)
T4040 010:475 JLINK_ReadMem (0x20002674, 0x0004 Bytes, ...) -- Read from C cache (4 bytes @ 0x20002674) - Data: AB 6A 00 08  returns 0x00 (0000ms, 0922ms total)
T4040 010:476 JLINK_ReadMem (0x20002654, 0x0004 Bytes, ...) -- Read from C cache (4 bytes @ 0x20002654) - Data: 10 00 00 00  returns 0x00 (0000ms, 0923ms total)
T4040 010:476 JLINK_ReadMem (0x20002658, 0x0004 Bytes, ...) -- Read from C cache (4 bytes @ 0x20002658) - Data: 80 5F 00 20  returns 0x00 (0000ms, 0923ms total)
T4040 010:476 JLINK_ReadMem (0x2000265C, 0x0004 Bytes, ...) -- Read from C cache (4 bytes @ 0x2000265C) - Data: 60 5F 00 20  returns 0x00 (0000ms, 0923ms total)
T4040 010:476 JLINK_ReadMem (0x20002660, 0x0004 Bytes, ...) -- Read from C cache (4 bytes @ 0x20002660) - Data: 01 00 00 00  returns 0x00 (0000ms, 0923ms total)
T4040 010:476 JLINK_ReadMem (0x20002664, 0x0004 Bytes, ...) -- Read from C cache (4 bytes @ 0x20002664) - Data: 07 00 00 00  returns 0x00 (0000ms, 0923ms total)
T4040 010:476 JLINK_ReadMem (0x20002668, 0x0004 Bytes, ...) -- Read from C cache (4 bytes @ 0x20002668) - Data: 01 00 00 00  returns 0x00 (0000ms, 0923ms total)
T4040 010:476 JLINK_ReadMem (0x2000266C, 0x0004 Bytes, ...) -- Read from C cache (4 bytes @ 0x2000266C) - Data: 48 04 00 20  returns 0x00 (0000ms, 0923ms total)
T4040 010:476 JLINK_ReadMem (0x20002670, 0x0004 Bytes, ...) -- Read from C cache (4 bytes @ 0x20002670) - Data: A0 26 00 20  returns 0x00 (0000ms, 0923ms total)
T4040 010:476 JLINK_ReadMem (0x20002694, 0x0004 Bytes, ...) -- CPU_ReadMem(64 bytes @ 0x20002680) -- Updating C cache (64 bytes @ 0x20002680) -- Read from C cache (4 bytes @ 0x20002694) - Data: 5D 6A 00 08  returns 0x00 (0001ms, 0924ms total)
T4040 010:477 JLINK_ReadMem (0x20002684, 0x0004 Bytes, ...) -- Read from C cache (4 bytes @ 0x20002684) - Data: 00 00 00 00  returns 0x00 (0000ms, 0924ms total)
T4040 010:477 JLINK_ReadMem (0x20002688, 0x0004 Bytes, ...) -- Read from C cache (4 bytes @ 0x20002688) - Data: 00 00 00 00  returns 0x00 (0000ms, 0924ms total)
T4040 010:477 JLINK_ReadMem (0x2000268C, 0x0004 Bytes, ...) -- Read from C cache (4 bytes @ 0x2000268C) - Data: CD F9 FF FF  returns 0x00 (0000ms, 0924ms total)
T4040 010:477 JLINK_ReadMem (0x20002690, 0x0004 Bytes, ...) -- Read from C cache (4 bytes @ 0x20002690) - Data: 01 00 00 00  returns 0x00 (0000ms, 0924ms total)
T4040 010:477 JLINK_ReadMem (0x2000269C, 0x0004 Bytes, ...) -- Read from C cache (4 bytes @ 0x2000269C) - Data: B1 6E 00 08  returns 0x00 (0000ms, 0924ms total)
T4040 010:477 JLINK_ReadMem (0x20002698, 0x0004 Bytes, ...) -- Read from C cache (4 bytes @ 0x20002698) - Data: A8 04 00 20  returns 0x00 (0000ms, 0924ms total)
T4040 010:477 JLINK_ReadMem (0x20002744, 0x0004 Bytes, ...) -- CPU_ReadMem(64 bytes @ 0x20002740) -- Updating C cache (64 bytes @ 0x20002740) -- Read from C cache (4 bytes @ 0x20002744) - Data: 35 61 00 08  returns 0x00 (0001ms, 0925ms total)
T4040 010:478 JLINK_ReadMem (0x20002724, 0x0004 Bytes, ...) -- CPU_ReadMem(64 bytes @ 0x20002700) -- Updating C cache (64 bytes @ 0x20002700) -- Read from C cache (4 bytes @ 0x20002724) - Data: F0 04 00 20  returns 0x00 (0001ms, 0926ms total)
T4040 010:479 JLINK_ReadMem (0x20002728, 0x0004 Bytes, ...) -- Read from C cache (4 bytes @ 0x20002728) - Data: 00 00 00 00  returns 0x00 (0000ms, 0926ms total)
T4040 010:479 JLINK_ReadMem (0x2000272C, 0x0004 Bytes, ...) -- Read from C cache (4 bytes @ 0x2000272C) - Data: 48 04 00 20  returns 0x00 (0000ms, 0926ms total)
T4040 010:479 JLINK_ReadMem (0x20002730, 0x0004 Bytes, ...) -- Read from C cache (4 bytes @ 0x20002730) - Data: 00 00 00 00  returns 0x00 (0000ms, 0926ms total)
T4040 010:479 JLINK_ReadMem (0x20002734, 0x0004 Bytes, ...) -- Read from C cache (4 bytes @ 0x20002734) - Data: 00 00 00 00  returns 0x00 (0000ms, 0926ms total)
T4040 010:479 JLINK_ReadMem (0x20002738, 0x0004 Bytes, ...) -- Read from C cache (4 bytes @ 0x20002738) - Data: 00 00 00 00  returns 0x00 (0000ms, 0926ms total)
T4040 010:479 JLINK_ReadMem (0x2000273C, 0x0004 Bytes, ...) -- Read from C cache (4 bytes @ 0x2000273C) - Data: 00 00 00 00  returns 0x00 (0000ms, 0926ms total)
T4040 010:479 JLINK_ReadMem (0x20002740, 0x0004 Bytes, ...) -- Read from C cache (4 bytes @ 0x20002740) - Data: 00 00 00 00  returns 0x00 (0000ms, 0926ms total)
T4040 010:479 JLINK_ReadMem (0x20002754, 0x0004 Bytes, ...) -- Read from C cache (4 bytes @ 0x20002754) - Data: AF 71 00 08  returns 0x00 (0000ms, 0926ms total)
T4040 010:479 JLINK_ReadMem (0x20002748, 0x0004 Bytes, ...) -- Read from C cache (4 bytes @ 0x20002748) - Data: 00 00 00 00  returns 0x00 (0000ms, 0926ms total)
T4040 010:479 JLINK_ReadMem (0x2000274C, 0x0004 Bytes, ...) -- Read from C cache (4 bytes @ 0x2000274C) - Data: 00 00 00 00  returns 0x00 (0000ms, 0926ms total)
T4040 010:479 JLINK_ReadMem (0x20002750, 0x0004 Bytes, ...) -- Read from C cache (4 bytes @ 0x20002750) - Data: 00 00 00 00  returns 0x00 (0000ms, 0926ms total)
T4040 010:479 JLINK_ReadMem (0x2000275C, 0x0004 Bytes, ...) -- Read from C cache (4 bytes @ 0x2000275C) - Data: BF 3F 00 08  returns 0x00 (0000ms, 0926ms total)
T4040 010:479 JLINK_ReadMem (0x20002758, 0x0004 Bytes, ...) -- Read from C cache (4 bytes @ 0x20002758) - Data: 00 00 00 00  returns 0x00 (0000ms, 0926ms total)
T4040 010:479 JLINK_ReadMem (0x20002764, 0x0004 Bytes, ...) -- Read from C cache (4 bytes @ 0x20002764) - Data: 53 37 00 08  returns 0x00 (0000ms, 0926ms total)
T4040 010:479 JLINK_ReadMem (0x20002760, 0x0004 Bytes, ...) -- Read from C cache (4 bytes @ 0x20002760) - Data: 00 00 00 00  returns 0x00 (0000ms, 0926ms total)
T4040 010:479 JLINK_ReadMem (0x00000000, 0x0004 Bytes, ...) -- CPU_ReadMem(4 bytes @ 0x00000004) -- CPU_ReadMem(64 bytes @ 0x08000000) -- Updating C cache (64 bytes @ 0x08000000) -- Read from C cache (4 bytes @ 0x08000000) - Data: 58 6C 00 20  returns 0x00 (0002ms, 0928ms total)
T4040 010:481 JLINK_ReadMem (0x200004BB, 0x0001 Bytes, ...) -- CPU_ReadMem(64 bytes @ 0x20000480) -- Updating C cache (64 bytes @ 0x20000480) -- Read from C cache (1 bytes @ 0x200004BB) - Data: 81  returns 0x00 (0000ms, 0928ms total)
T4040 010:481 JLINK_ReadMem (0x20002720, 0x0001 Bytes, ...) -- Read from C cache (1 bytes @ 0x20002720) - Data: 00  returns 0x00 (0000ms, 0928ms total)
T4040 010:491 JLINK_ReadMem (0x08005624, 0x003C Bytes, ...) -- CPU_ReadMem(128 bytes @ 0x08005600) -- Updating C cache (128 bytes @ 0x08005600) -- Read from C cache (60 bytes @ 0x08005624) - Data: 02 22 29 46 30 46 FF F7 A5 FF 22 46 39 46 30 46 ...  returns 0x00 (0001ms, 0929ms total)
T2DDC 012:842 JLINK_SetBPEx(Addr = 0x08005218, Type = 0xFFFFFFF2)  returns 0x0000000D (0001ms, 0930ms total)
T2DDC 012:843 JLINK_SetBPEx(Addr = 0x080051E8, Type = 0xFFFFFFF2)  returns 0x0000000E (0000ms, 0930ms total)
T2DDC 012:843 JLINK_Go() -- CPU_WriteMem(4 bytes @ 0xE0002000) -- CPU_WriteMem(4 bytes @ 0xE0002000) -- CPU_ReadMem(4 bytes @ 0xE0001000) -- CPU_WriteMem(4 bytes @ 0xE0002010) (0001ms, 0931ms total)
T2DDC 012:945 JLINK_IsHalted()  returns TRUE (0002ms, 0933ms total)
T2DDC 012:947 JLINK_Halt()  returns 0x00 (0000ms, 0931ms total)
T2DDC 012:947 JLINK_IsHalted()  returns TRUE (0000ms, 0931ms total)
T2DDC 012:947 JLINK_IsHalted()  returns TRUE (0000ms, 0931ms total)
T2DDC 012:947 JLINK_IsHalted()  returns TRUE (0000ms, 0931ms total)
T2DDC 012:947 JLINK_ReadReg(R15 (PC))  returns 0x080051E8 (0000ms, 0931ms total)
T2DDC 012:947 JLINK_ReadReg(XPSR)  returns 0x81000000 (0000ms, 0931ms total)
T2DDC 012:947 JLINK_ClrBPEx(BPHandle = 0x0000000D)  returns 0x00 (0000ms, 0931ms total)
T2DDC 012:947 JLINK_ClrBPEx(BPHandle = 0x0000000E)  returns 0x00 (0000ms, 0931ms total)
T2DDC 012:947 JLINK_ReadMemU32(0xE000ED30, 0x0001 Items, ...) -- CPU_ReadMem(4 bytes @ 0xE000ED30) - Data: 03 00 00 00  returns 0x01 (0001ms, 0932ms total)
T2DDC 012:948 JLINK_ReadMemU32(0xE0001028, 0x0001 Items, ...) -- CPU_ReadMem(4 bytes @ 0xE0001028) - Data: 00 00 00 00  returns 0x01 (0000ms, 0932ms total)
T2DDC 012:948 JLINK_ReadMemU32(0xE0001038, 0x0001 Items, ...) -- CPU_ReadMem(4 bytes @ 0xE0001038) - Data: 00 02 00 00  returns 0x01 (0001ms, 0933ms total)
T2DDC 012:949 JLINK_ReadMemU32(0xE0001048, 0x0001 Items, ...) -- CPU_ReadMem(4 bytes @ 0xE0001048) - Data: 00 00 00 00  returns 0x01 (0000ms, 0933ms total)
T2DDC 012:949 JLINK_ReadMemU32(0xE0001058, 0x0001 Items, ...) -- CPU_ReadMem(4 bytes @ 0xE0001058) - Data: 00 00 00 00  returns 0x01 (0000ms, 0933ms total)
T2DDC 012:949 JLINK_ReadReg(R0)  returns 0x00000000 (0000ms, 0933ms total)
T2DDC 012:949 JLINK_ReadReg(R1)  returns 0x20005EC0 (0000ms, 0933ms total)
T2DDC 012:949 JLINK_ReadReg(R2)  returns 0x00000010 (0000ms, 0933ms total)
T2DDC 012:949 JLINK_ReadReg(R3)  returns 0x00000010 (0000ms, 0933ms total)
T2DDC 012:949 JLINK_ReadReg(R4)  returns 0x200004A8 (0000ms, 0933ms total)
T2DDC 012:949 JLINK_ReadReg(R5)  returns 0x20005F80 (0000ms, 0933ms total)
T2DDC 012:949 JLINK_ReadReg(R6)  returns 0x00000010 (0000ms, 0933ms total)
T2DDC 012:949 JLINK_ReadReg(R7)  returns 0x00000000 (0000ms, 0933ms total)
T2DDC 012:949 JLINK_ReadReg(R8)  returns 0x20005F60 (0000ms, 0933ms total)
T2DDC 012:949 JLINK_ReadReg(R9)  returns 0x20005EC0 (0000ms, 0933ms total)
T2DDC 012:949 JLINK_ReadReg(R10)  returns 0x20005E80 (0000ms, 0933ms total)
T2DDC 012:949 JLINK_ReadReg(R11)  returns 0x20005F40 (0000ms, 0933ms total)
T2DDC 012:949 JLINK_ReadReg(R12)  returns 0x00000000 (0000ms, 0933ms total)
T2DDC 012:949 JLINK_ReadReg(R13 (SP))  returns 0x20002650 (0000ms, 0933ms total)
T2DDC 012:949 JLINK_ReadReg(R14)  returns 0x080051E5 (0000ms, 0933ms total)
T2DDC 012:949 JLINK_ReadReg(R15 (PC))  returns 0x080051E8 (0000ms, 0933ms total)
T2DDC 012:949 JLINK_ReadReg(XPSR)  returns 0x81000000 (0000ms, 0933ms total)
